
T0940 000:507 SEGGER J-Link V4.41b (beta) Log File (0012ms, 0501ms total)
T0940 000:507 DLL Compiled: Dec 21 2011 19:07:35 (0012ms, 0501ms total)
T0940 000:507 Logging started @ 2013-03-25 16:10 (0012ms, 0501ms total)
T0940 000:519 JLINK_SetWarnOutHandler(...) (0000ms, 0513ms total)
T0940 000:519 JLINK_OpenEx(...)
Firmware: J-Link ARM V8 compiled Jun 19 2012 11:29:30
Hardware: V8.00
S/N: 20100214
Feature(s): RDI,FlashDL,FlashBP,JFlash,GDBFull  returns O.K. (0183ms, 0513ms total)
T0940 000:702 JLINK_SetErrorOutHandler(...) (0000ms, 0696ms total)
T0940 000:702 JLINK_ExecCommand("Device = STM32F103C8", ...)
                JLINK_ExecCommand("map ram 0x20000000 - 0x20004FFF", ...)  returns 0x00 (0000ms, 0000ms total)
                JLINK_AddMirrorAreaEx(Addr = 0x00000000, Size = 0x00000000) (0000ms, 0000ms total)
              Device "STM32F103C8" selected (64 KB flash, 20 KB RAM).  returns 0x00 (0002ms, 0696ms total)
T0940 000:706 JLINK_ExecCommand("ProjectFile = "F:\lindabell\0.Project\4.丁老师项目\1.车载终端\外设-液晶、语音\ARM板程序\projectScr\JLinkSettings.ini"", ...)  returns 0x00 (0001ms, 0698ms total)
T0940 000:716 JLINK_ExecCommand("DisableConnectionTimeout", ...)  returns 0x00 (0000ms, 0699ms total)
T0940 000:716 JLINK_TIF_Select(JLINKARM_TIF_SWD)  returns 0x00 (0006ms, 0699ms total)
T0940 000:722 JLINK_SetSpeed(10000) (0001ms, 0705ms total)
T0940 000:723 JLINK_GetHardwareVersion()  returns 0x13880 (0000ms, 0706ms total)
T0940 000:723 JLINK_GetDLLVersion()  returns 44102 (0000ms, 0706ms total)
T0940 000:723 JLINK_GetFirmwareString(...) (0000ms, 0706ms total)
T0940 000:748 JLINK_GetDLLVersion()  returns 44102 (0000ms, 0706ms total)
T0940 000:748 JLINK_GetCompileDateTime() (0000ms, 0706ms total)
T0940 000:757 JLINK_GetFirmwareString(...) (0000ms, 0706ms total)
T0940 000:769 JLINK_GetHardwareVersion()  returns 0x13880 (0000ms, 0706ms total)
T0940 000:786 JLINK_GetId() >0x108 TIF>Found SWD-DP with ID 0x1BA01477 >0x33 TIF> >0x33 TIF> >0x35 TIF> >0x33 TIF> >0x33 TIF> >0x35 TIF> >0x33 TIF> >0x33 TIF> >0x35 TIF> >0x33 TIF> >0x33 TIF> >0x35 TIF> >0x33 TIF> >0x33 TIF> >0x35 TIF> >0x35 TIF> >0x35 TIF> >0x35 TIF> >0x35 TIF> >0x33 TIF> >0x33 TIF> >0x35 TIF> >0x35 TIF> >0x35 TIF> >0x33 TIF> >0x33 TIF> >0x33 TIF>TPIU fitted. >0x35 TIF> >0x33 TIF> >0x33 TIF> >0x35 TIF> >0x33 TIF> >0x33 TIF>  FPUnit: 6 code (BP) slots and 2 literal slots >0x35 TIF>
 >0x33 TIF> >0x33 TIF> >0x35 TIF> >0x35 TIF> >0x35 TIF> >0x33 TIF> >0x33 TIF> >0x35 TIF> >0x33 TIF> >0x33 TIF> >0x35 TIF> >0x33 TIF> >0x33 TIF>Found Cortex-M3 r1p1, Little endian. >0x33 TIF>  returns 0x1BA01477 (0065ms, 0706ms total)
T0940 000:851 JLINK_GetDebugInfo(0x100) -- Value=0xE00FF003  returns 0x00 (0000ms, 0771ms total)
T0940 000:853 JLINK_ReadMem (0xE00FFFF0, 0x0010 Bytes, ...) -- CPU is running -- CPU_ReadMem(16 bytes @ 0xE00FFFF0) -- Data:  0D 00 00 00 10 00 00 00 05 00 00 00 B1 00 00 00  returns 0x00 (0002ms, 0771ms total)
T0940 000:855 JLINK_ReadMem (0xE00FFFD0, 0x0020 Bytes, ...) -- CPU is running -- CPU_ReadMem(32 bytes @ 0xE00FFFD0) -- Data:  00 00 00 00 00 00 00 00 00 00 00 00 00 00 00 00 ...  returns 0x00 (0001ms, 0773ms total)
T0940 000:856 JLINK_ReadMem (0xE00FF000, 0x0018 Bytes, ...) -- CPU is running -- CPU_ReadMem(24 bytes @ 0xE00FF000) -- Data:  03 F0 F0 FF 03 20 F0 FF 03 30 F0 FF 03 10 F0 FF ...  returns 0x00 (0001ms, 0774ms total)
T0940 000:857 JLINK_ReadMemU32(0xE000ED00, 0x0001 Items, ...) -- CPU is running -- CPU_ReadMem(4 bytes @ 0xE000ED00) -- Data:  31 C2 1F 41  returns 0x01 (0001ms, 0775ms total)
T0940 000:858 JLINK_SetResetType(JLINKARM_RESET_TYPE_NORMAL)  returns JLINKARM_RESET_TYPE_NORMAL (0000ms, 0776ms total)
T0940 000:858 JLINK_Reset() >0x108 TIF>Found SWD-DP with ID 0x1BA01477 >0x33 TIF> >0x33 TIF> >0x35 TIF> >0x33 TIF> >0x35 TIF> >0x33 TIF> >0x33 TIF> >0x35 TIF> >0x33 TIF> >0x33 TIF> >0x35 TIF> >0x33 TIF> >0x33 TIF> >0x35 TIF> >0x33 TIF> >0x33 TIF> >0x35 TIF> >0x35 TIF> >0x35 TIF> >0x35 TIF> >0x35 TIF> >0x33 TIF> >0x33 TIF> >0x35 TIF> >0x33 TIF> >0x33 TIF> >0x33 TIF>TPIU fitted. >0x35 TIF> >0x33 TIF> >0x33 TIF> >0x35 TIF> >0x33 TIF> >0x33 TIF>  FPUnit: 6 code (BP) slots and 2 literal slots >0x35 TIF>
 >0x33 TIF> >0x33 TIF> >0x35 TIF> >0x33 TIF> >0x33 TIF> >0x35 TIF> >0x33 TIF> >0x33 TIF> >0x35 TIF> >0x33 TIF> >0x33 TIF>Found Cortex-M3 r1p1, Little endian. -- CPU is running -- CPU_WriteMem(4 bytes @ 0xE000EDF0) -- CPU is running -- CPU_WriteMem(4 bytes @ 0xE000EDFC) >0x35 TIF> -- CPU is running -- CPU_WriteMem(4 bytes @ 0xE000ED0C) -- CPU is running -- CPU_ReadMem(4 bytes @ 0xE000EDF0) -- CPU is running -- CPU_ReadMem(4 bytes @ 0xE000EDF0) -- CPU is running -- CPU_WriteMem(4 bytes @ 0xE000EDF0)
 -- CPU is running -- CPU_WriteMem(4 bytes @ 0xE000EDFC) -- CPU is running -- CPU_ReadMem(4 bytes @ 0xE000EDF0) (0085ms, 0776ms total)
T0940 000:943 JLINK_Halt()  returns 0x00 (0000ms, 0861ms total)
T0940 000:943 JLINK_IsHalted()  returns TRUE (0000ms, 0861ms total)
T0940 000:943 JLINK_ReadMemU32(0xE000EDF0, 0x0001 Items, ...) -- CPU_ReadMem(4 bytes @ 0xE000EDF0) -- Data:  03 00 03 00  returns 0x01 (0000ms, 0861ms total)
T0940 000:943 JLINK_WriteU32(0xE000EDF0, 0xA05F0003) -- CPU_WriteMem(4 bytes @ 0xE000EDF0)  returns 0x00 (0001ms, 0861ms total)
T0940 000:944 JLINK_WriteU32(0xE000EDFC, 0x01000000) -- CPU_WriteMem(4 bytes @ 0xE000EDFC)  returns 0x00 (0001ms, 0862ms total)
T0940 000:957 JLINK_GetHWStatus(...)  returns 0x00 (0000ms, 0863ms total)
T0940 000:963 JLINK_GetNumBPUnits(Type = 0xFFFFFF00)  returns 0x06 (0000ms, 0863ms total)
T0940 000:963 JLINK_GetNumBPUnits(Type = 0xF0)  returns 0x2000 (0001ms, 0863ms total)
T0940 000:964 JLINK_GetNumWPUnits()  returns 0x04 (0000ms, 0864ms total)
T0940 000:972 JLINK_GetSpeed()  returns 0xFA0 (0000ms, 0864ms total)
T0940 000:977 JLINK_ReadMemU32(0xE000E004, 0x0001 Items, ...) -- CPU_ReadMem(4 bytes @ 0xE000E004) -- Data:  01 00 00 00  returns 0x01 (0001ms, 0864ms total)
T0940 000:978 JLINK_ReadMemU32(0xE000E004, 0x0001 Items, ...) -- CPU_ReadMem(4 bytes @ 0xE000E004) -- Data:  01 00 00 00  returns 0x01 (0001ms, 0865ms total)
T0940 000:979 JLINK_WriteMem(0xE0001000, 0x001C Bytes, ...) -- Data:  01 00 00 00 00 00 00 00 00 00 00 00 00 00 00 00 ... -- CPU_WriteMem(28 bytes @ 0xE0001000)  returns 0x1C (0001ms, 0866ms total)
T0940 000:980 JLINK_ReadMem (0xE0001000, 0x001C Bytes, ...) -- CPU_ReadMem(28 bytes @ 0xE0001000) -- Data:  01 00 00 40 00 00 00 00 00 00 00 00 00 00 00 00 ...  returns 0x00 (0001ms, 0867ms total)
T0940 000:981 JLINK_Halt()  returns 0x00 (0000ms, 0868ms total)
T0940 000:981 JLINK_IsHalted()  returns TRUE (0000ms, 0868ms total)
T0940 001:004 JLINK_WriteMem(0x20000000, 0x0164 Bytes, ...) -- Data:  00 BE 0A E0 0D 78 2D 06 68 40 08 24 40 00 00 D3 ... -- CPU_WriteMem(356 bytes @ 0x20000000)  returns 0x164 (0005ms, 0868ms total)
T0940 001:009 JLINK_WriteReg(R0, 0x08000000)  returns 0x00 (0000ms, 0873ms total)
T0940 001:009 JLINK_WriteReg(R1, 0x007A1200)  returns 0x00 (0000ms, 0873ms total)
T0940 001:009 JLINK_WriteReg(R2, 0x00000001)  returns 0x00 (0000ms, 0873ms total)
T0940 001:009 JLINK_WriteReg(R3, 0x00000000)  returns 0x00 (0000ms, 0873ms total)
T0940 001:009 JLINK_WriteReg(R4, 0x00000000)  returns 0x00 (0000ms, 0873ms total)
T0940 001:009 JLINK_WriteReg(R5, 0x00000000)  returns 0x00 (0000ms, 0873ms total)
T0940 001:009 JLINK_WriteReg(R6, 0x00000000)  returns 0x00 (0000ms, 0873ms total)
T0940 001:009 JLINK_WriteReg(R7, 0x00000000)  returns 0x00 (0000ms, 0873ms total)
T0940 001:009 JLINK_WriteReg(R8, 0x00000000)  returns 0x00 (0000ms, 0873ms total)
T0940 001:009 JLINK_WriteReg(R9, 0x20000160)  returns 0x00 (0000ms, 0873ms total)
T0940 001:009 JLINK_WriteReg(R10, 0x00000000)  returns 0x00 (0000ms, 0873ms total)
T0940 001:009 JLINK_WriteReg(R11, 0x00000000)  returns 0x00 (0000ms, 0873ms total)
T0940 001:009 JLINK_WriteReg(R12, 0x00000000)  returns 0x00 (0000ms, 0873ms total)
T0940 001:009 JLINK_WriteReg(R13, 0x20000800)  returns 0x00 (0000ms, 0873ms total)
T0940 001:009 JLINK_WriteReg(R14, 0x20000001)  returns 0x00 (0000ms, 0873ms total)
T0940 001:009 JLINK_WriteReg(R15, 0x20000038)  returns 0x00 (0000ms, 0873ms total)
T0940 001:009 JLINK_WriteReg(XPSR, 0x01000000)  returns 0x00 (0000ms, 0873ms total)
T0940 001:009 JLINK_WriteReg(MSP, 0x20000800)  returns 0x00 (0000ms, 0873ms total)
T0940 001:009 JLINK_WriteReg(PSP, 0x20000800)  returns 0x00 (0000ms, 0873ms total)
T0940 001:009 JLINK_WriteReg(CFBP, 0x00000000)  returns 0x00 (0000ms, 0873ms total)
T0940 001:009 JLINK_SetBPEx(Addr = 0x20000000, Type = 0xFFFFFFF2) -- CPU_ReadMem(2 bytes @ 0x20000000)  returns 0x00000001 (0001ms, 0873ms total)
T0940 001:010 JLINK_Go() -- CPU_WriteMem(2 bytes @ 0x20000000) -- CPU_WriteMem(4 bytes @ 0xE0002008) -- CPU_WriteMem(4 bytes @ 0xE000200C) -- CPU_WriteMem(4 bytes @ 0xE0002010) -- CPU_WriteMem(4 bytes @ 0xE0002014) -- CPU_WriteMem(4 bytes @ 0xE0002018) -- CPU_WriteMem(4 bytes @ 0xE000201C) (0011ms, 0874ms total)
T0940 001:022 JLINK_IsHalted() -- CPU_ReadMem(2 bytes @ 0x20000000)  returns TRUE (0004ms, 0885ms total)
T0940 001:026 JLINK_ReadReg(R15)  returns 0x20000000 (0000ms, 0885ms total)
T0940 001:026 JLINK_ClrBPEx(BPHandle = 0x00000001)  returns 0x00 (0000ms, 0885ms total)
T0940 001:026 JLINK_ReadReg(R0)  returns 0x00000000 (0000ms, 0885ms total)
T0940 001:026 JLINK_WriteReg(R0, 0x08000000)  returns 0x00 (0000ms, 0885ms total)
T0940 001:026 JLINK_WriteReg(R1, 0x00000400)  returns 0x00 (0000ms, 0885ms total)
T0940 001:026 JLINK_WriteReg(R2, 0x000000FF)  returns 0x00 (0000ms, 0885ms total)
T0940 001:026 JLINK_WriteReg(R3, 0x00000000)  returns 0x00 (0000ms, 0885ms total)
T0940 001:026 JLINK_WriteReg(R4, 0x00000000)  returns 0x00 (0000ms, 0885ms total)
T0940 001:026 JLINK_WriteReg(R5, 0x00000000)  returns 0x00 (0000ms, 0885ms total)
T0940 001:026 JLINK_WriteReg(R6, 0x00000000)  returns 0x00 (0000ms, 0885ms total)
T0940 001:026 JLINK_WriteReg(R7, 0x00000000)  returns 0x00 (0000ms, 0885ms total)
T0940 001:026 JLINK_WriteReg(R8, 0x00000000)  returns 0x00 (0000ms, 0885ms total)
T0940 001:026 JLINK_WriteReg(R9, 0x20000160)  returns 0x00 (0000ms, 0885ms total)
T0940 001:026 JLINK_WriteReg(R10, 0x00000000)  returns 0x00 (0000ms, 0885ms total)
T0940 001:026 JLINK_WriteReg(R11, 0x00000000)  returns 0x00 (0000ms, 0885ms total)
T0940 001:026 JLINK_WriteReg(R12, 0x00000000)  returns 0x00 (0000ms, 0885ms total)
T0940 001:026 JLINK_WriteReg(R13, 0x20000800)  returns 0x00 (0000ms, 0885ms total)
T0940 001:026 JLINK_WriteReg(R14, 0x20000001)  returns 0x00 (0000ms, 0885ms total)
T0940 001:026 JLINK_WriteReg(R15, 0x20000020)  returns 0x00 (0000ms, 0885ms total)
T0940 001:026 JLINK_WriteReg(XPSR, 0x01000000)  returns 0x00 (0000ms, 0885ms total)
T0940 001:026 JLINK_WriteReg(MSP, 0x20000800)  returns 0x00 (0000ms, 0885ms total)
T0940 001:026 JLINK_WriteReg(PSP, 0x20000800)  returns 0x00 (0000ms, 0885ms total)
T0940 001:026 JLINK_WriteReg(CFBP, 0x00000000)  returns 0x00 (0000ms, 0885ms total)
T0940 001:026 JLINK_SetBPEx(Addr = 0x20000000, Type = 0xFFFFFFF2)  returns 0x00000002 (0000ms, 0885ms total)
T0940 001:026 JLINK_Go() -- CPU_WriteMem(4 bytes @ 0xE0002008) -- CPU_WriteMem(4 bytes @ 0xE000200C) -- CPU_WriteMem(4 bytes @ 0xE0002010) -- CPU_WriteMem(4 bytes @ 0xE0002014) -- CPU_WriteMem(4 bytes @ 0xE0002018) -- CPU_WriteMem(4 bytes @ 0xE000201C) (0008ms, 0885ms total)
T0940 001:034 JLINK_IsHalted() -- CPU_ReadMem(2 bytes @ 0x20000000)  returns TRUE (0004ms, 0893ms total)
T0940 001:038 JLINK_ReadReg(R15)  returns 0x20000000 (0000ms, 0893ms total)
T0940 001:038 JLINK_ClrBPEx(BPHandle = 0x00000002)  returns 0x00 (0000ms, 0893ms total)
T0940 001:038 JLINK_ReadReg(R0)  returns 0x00000001 (0000ms, 0893ms total)
T0940 001:038 JLINK_WriteReg(R0, 0x08000000)  returns 0x00 (0000ms, 0893ms total)
T0940 001:038 JLINK_WriteReg(R1, 0x00000400)  returns 0x00 (0000ms, 0893ms total)
T0940 001:038 JLINK_WriteReg(R2, 0x000000FF)  returns 0x00 (0000ms, 0893ms total)
T0940 001:038 JLINK_WriteReg(R3, 0x00000000)  returns 0x00 (0000ms, 0893ms total)
T0940 001:038 JLINK_WriteReg(R4, 0x00000000)  returns 0x00 (0000ms, 0893ms total)
T0940 001:038 JLINK_WriteReg(R5, 0x00000000)  returns 0x00 (0000ms, 0893ms total)
T0940 001:038 JLINK_WriteReg(R6, 0x00000000)  returns 0x00 (0000ms, 0893ms total)
T0940 001:038 JLINK_WriteReg(R7, 0x00000000)  returns 0x00 (0000ms, 0893ms total)
T0940 001:038 JLINK_WriteReg(R8, 0x00000000)  returns 0x00 (0001ms, 0893ms total)
T0940 001:039 JLINK_WriteReg(R9, 0x20000160)  returns 0x00 (0000ms, 0894ms total)
T0940 001:039 JLINK_WriteReg(R10, 0x00000000)  returns 0x00 (0000ms, 0894ms total)
T0940 001:039 JLINK_WriteReg(R11, 0x00000000)  returns 0x00 (0000ms, 0894ms total)
T0940 001:039 JLINK_WriteReg(R12, 0x00000000)  returns 0x00 (0000ms, 0894ms total)
T0940 001:039 JLINK_WriteReg(R13, 0x20000800)  returns 0x00 (0000ms, 0894ms total)
T0940 001:039 JLINK_WriteReg(R14, 0x20000001)  returns 0x00 (0000ms, 0894ms total)
T0940 001:039 JLINK_WriteReg(R15, 0x200000B6)  returns 0x00 (0000ms, 0894ms total)
T0940 001:039 JLINK_WriteReg(XPSR, 0x01000000)  returns 0x00 (0000ms, 0894ms total)
T0940 001:039 JLINK_WriteReg(MSP, 0x20000800)  returns 0x00 (0000ms, 0894ms total)
T0940 001:039 JLINK_WriteReg(PSP, 0x20000800)  returns 0x00 (0000ms, 0894ms total)
T0940 001:039 JLINK_WriteReg(CFBP, 0x00000000)  returns 0x00 (0000ms, 0894ms total)
T0940 001:039 JLINK_SetBPEx(Addr = 0x20000000, Type = 0xFFFFFFF2)  returns 0x00000003 (0000ms, 0894ms total)
T0940 001:039 JLINK_Go() -- CPU_WriteMem(4 bytes @ 0xE0002008) -- CPU_WriteMem(4 bytes @ 0xE000200C) -- CPU_WriteMem(4 bytes @ 0xE0002010) -- CPU_WriteMem(4 bytes @ 0xE0002014) -- CPU_WriteMem(4 bytes @ 0xE0002018) -- CPU_WriteMem(4 bytes @ 0xE000201C) (0008ms, 0894ms total)
T0940 001:047 JLINK_IsHalted()  returns FALSE (0001ms, 0902ms total)
T0940 001:099 JLINK_IsHalted() -- CPU_ReadMem(2 bytes @ 0x20000000)  returns TRUE (0004ms, 0902ms total)
T0940 001:103 JLINK_ReadReg(R15)  returns 0x20000000 (0000ms, 0902ms total)
T0940 001:103 JLINK_ClrBPEx(BPHandle = 0x00000003)  returns 0x00 (0000ms, 0902ms total)
T0940 001:103 JLINK_ReadReg(R0)  returns 0x00000000 (0000ms, 0902ms total)
T0940 001:104 JLINK_WriteReg(R0, 0x08000400)  returns 0x00 (0000ms, 0902ms total)
T0940 001:104 JLINK_WriteReg(R1, 0x00000400)  returns 0x00 (0000ms, 0902ms total)
T0940 001:104 JLINK_WriteReg(R2, 0x000000FF)  returns 0x00 (0000ms, 0902ms total)
T0940 001:104 JLINK_WriteReg(R3, 0x00000000)  returns 0x00 (0000ms, 0902ms total)
T0940 001:104 JLINK_WriteReg(R4, 0x00000000)  returns 0x00 (0000ms, 0902ms total)
T0940 001:104 JLINK_WriteReg(R5, 0x00000000)  returns 0x00 (0000ms, 0902ms total)
T0940 001:104 JLINK_WriteReg(R6, 0x00000000)  returns 0x00 (0000ms, 0902ms total)
T0940 001:104 JLINK_WriteReg(R7, 0x00000000)  returns 0x00 (0000ms, 0902ms total)
T0940 001:104 JLINK_WriteReg(R8, 0x00000000)  returns 0x00 (0000ms, 0902ms total)
T0940 001:104 JLINK_WriteReg(R9, 0x20000160)  returns 0x00 (0000ms, 0902ms total)
T0940 001:104 JLINK_WriteReg(R10, 0x00000000)  returns 0x00 (0000ms, 0902ms total)
T0940 001:104 JLINK_WriteReg(R11, 0x00000000)  returns 0x00 (0000ms, 0902ms total)
T0940 001:104 JLINK_WriteReg(R12, 0x00000000)  returns 0x00 (0000ms, 0902ms total)
T0940 001:104 JLINK_WriteReg(R13, 0x20000800)  returns 0x00 (0000ms, 0902ms total)
T0940 001:104 JLINK_WriteReg(R14, 0x20000001)  returns 0x00 (0000ms, 0902ms total)
T0940 001:104 JLINK_WriteReg(R15, 0x20000020)  returns 0x00 (0000ms, 0902ms total)
T0940 001:104 JLINK_WriteReg(XPSR, 0x01000000)  returns 0x00 (0000ms, 0902ms total)
T0940 001:104 JLINK_WriteReg(MSP, 0x20000800)  returns 0x00 (0000ms, 0902ms total)
T0940 001:104 JLINK_WriteReg(PSP, 0x20000800)  returns 0x00 (0000ms, 0902ms total)
T0940 001:104 JLINK_WriteReg(CFBP, 0x00000000)  returns 0x00 (0000ms, 0902ms total)
T0940 001:104 JLINK_SetBPEx(Addr = 0x20000000, Type = 0xFFFFFFF2)  returns 0x00000004 (0000ms, 0902ms total)
T0940 001:104 JLINK_Go() -- CPU_WriteMem(4 bytes @ 0xE0002008) -- CPU_WriteMem(4 bytes @ 0xE000200C) -- CPU_WriteMem(4 bytes @ 0xE0002010) -- CPU_WriteMem(4 bytes @ 0xE0002014) -- CPU_WriteMem(4 bytes @ 0xE0002018) -- CPU_WriteMem(4 bytes @ 0xE000201C) (0007ms, 0902ms total)
T0940 001:111 JLINK_IsHalted() -- CPU_ReadMem(2 bytes @ 0x20000000)  returns TRUE (0004ms, 0909ms total)
T0940 001:115 JLINK_ReadReg(R15)  returns 0x20000000 (0000ms, 0909ms total)
T0940 001:115 JLINK_ClrBPEx(BPHandle = 0x00000004)  returns 0x00 (0000ms, 0909ms total)
T0940 001:115 JLINK_ReadReg(R0)  returns 0x00000001 (0000ms, 0909ms total)
T0940 001:115 JLINK_WriteReg(R0, 0x08000400)  returns 0x00 (0000ms, 0909ms total)
T0940 001:115 JLINK_WriteReg(R1, 0x00000400)  returns 0x00 (0000ms, 0909ms total)
T0940 001:115 JLINK_WriteReg(R2, 0x000000FF)  returns 0x00 (0000ms, 0909ms total)
T0940 001:115 JLINK_WriteReg(R3, 0x00000000)  returns 0x00 (0000ms, 0909ms total)
T0940 001:115 JLINK_WriteReg(R4, 0x00000000)  returns 0x00 (0000ms, 0909ms total)
T0940 001:115 JLINK_WriteReg(R5, 0x00000000)  returns 0x00 (0000ms, 0909ms total)
T0940 001:115 JLINK_WriteReg(R6, 0x00000000)  returns 0x00 (0000ms, 0909ms total)
T0940 001:115 JLINK_WriteReg(R7, 0x00000000)  returns 0x00 (0000ms, 0909ms total)
T0940 001:115 JLINK_WriteReg(R8, 0x00000000)  returns 0x00 (0000ms, 0909ms total)
T0940 001:115 JLINK_WriteReg(R9, 0x20000160)  returns 0x00 (0000ms, 0909ms total)
T0940 001:115 JLINK_WriteReg(R10, 0x00000000)  returns 0x00 (0000ms, 0909ms total)
T0940 001:115 JLINK_WriteReg(R11, 0x00000000)  returns 0x00 (0000ms, 0909ms total)
T0940 001:116 JLINK_WriteReg(R12, 0x00000000)  returns 0x00 (0000ms, 0910ms total)
T0940 001:116 JLINK_WriteReg(R13, 0x20000800)  returns 0x00 (0000ms, 0910ms total)
T0940 001:116 JLINK_WriteReg(R14, 0x20000001)  returns 0x00 (0000ms, 0910ms total)
T0940 001:116 JLINK_WriteReg(R15, 0x200000B6)  returns 0x00 (0000ms, 0910ms total)
T0940 001:116 JLINK_WriteReg(XPSR, 0x01000000)  returns 0x00 (0000ms, 0910ms total)
T0940 001:116 JLINK_WriteReg(MSP, 0x20000800)  returns 0x00 (0000ms, 0910ms total)
T0940 001:116 JLINK_WriteReg(PSP, 0x20000800)  returns 0x00 (0000ms, 0910ms total)
T0940 001:116 JLINK_WriteReg(CFBP, 0x00000000)  returns 0x00 (0000ms, 0910ms total)
T0940 001:116 JLINK_SetBPEx(Addr = 0x20000000, Type = 0xFFFFFFF2)  returns 0x00000005 (0001ms, 0910ms total)
T0940 001:117 JLINK_Go() -- CPU_WriteMem(4 bytes @ 0xE0002008) -- CPU_WriteMem(4 bytes @ 0xE000200C) -- CPU_WriteMem(4 bytes @ 0xE0002010) -- CPU_WriteMem(4 bytes @ 0xE0002014) -- CPU_WriteMem(4 bytes @ 0xE0002018) -- CPU_WriteMem(4 bytes @ 0xE000201C) (0008ms, 0911ms total)
T0940 001:125 JLINK_IsHalted()  returns FALSE (0001ms, 0919ms total)
T0940 001:177 JLINK_IsHalted() -- CPU_ReadMem(2 bytes @ 0x20000000)  returns TRUE (0004ms, 0919ms total)
T0940 001:181 JLINK_ReadReg(R15)  returns 0x20000000 (0000ms, 0919ms total)
T0940 001:181 JLINK_ClrBPEx(BPHandle = 0x00000005)  returns 0x00 (0000ms, 0919ms total)
T0940 001:181 JLINK_ReadReg(R0)  returns 0x00000000 (0000ms, 0919ms total)
T0940 001:182 JLINK_WriteReg(R0, 0x08000800)  returns 0x00 (0000ms, 0919ms total)
T0940 001:182 JLINK_WriteReg(R1, 0x00000400)  returns 0x00 (0000ms, 0919ms total)
T0940 001:182 JLINK_WriteReg(R2, 0x000000FF)  returns 0x00 (0000ms, 0919ms total)
T0940 001:182 JLINK_WriteReg(R3, 0x00000000)  returns 0x00 (0000ms, 0919ms total)
T0940 001:182 JLINK_WriteReg(R4, 0x00000000)  returns 0x00 (0000ms, 0919ms total)
T0940 001:182 JLINK_WriteReg(R5, 0x00000000)  returns 0x00 (0000ms, 0919ms total)
T0940 001:182 JLINK_WriteReg(R6, 0x00000000)  returns 0x00 (0000ms, 0919ms total)
T0940 001:182 JLINK_WriteReg(R7, 0x00000000)  returns 0x00 (0000ms, 0919ms total)
T0940 001:182 JLINK_WriteReg(R8, 0x00000000)  returns 0x00 (0000ms, 0919ms total)
T0940 001:182 JLINK_WriteReg(R9, 0x20000160)  returns 0x00 (0000ms, 0919ms total)
T0940 001:182 JLINK_WriteReg(R10, 0x00000000)  returns 0x00 (0000ms, 0919ms total)
T0940 001:182 JLINK_WriteReg(R11, 0x00000000)  returns 0x00 (0000ms, 0919ms total)
T0940 001:182 JLINK_WriteReg(R12, 0x00000000)  returns 0x00 (0000ms, 0919ms total)
T0940 001:182 JLINK_WriteReg(R13, 0x20000800)  returns 0x00 (0000ms, 0919ms total)
T0940 001:182 JLINK_WriteReg(R14, 0x20000001)  returns 0x00 (0000ms, 0919ms total)
T0940 001:182 JLINK_WriteReg(R15, 0x20000020)  returns 0x00 (0000ms, 0919ms total)
T0940 001:182 JLINK_WriteReg(XPSR, 0x01000000)  returns 0x00 (0000ms, 0919ms total)
T0940 001:182 JLINK_WriteReg(MSP, 0x20000800)  returns 0x00 (0000ms, 0919ms total)
T0940 001:182 JLINK_WriteReg(PSP, 0x20000800)  returns 0x00 (0000ms, 0919ms total)
T0940 001:182 JLINK_WriteReg(CFBP, 0x00000000)  returns 0x00 (0000ms, 0919ms total)
T0940 001:182 JLINK_SetBPEx(Addr = 0x20000000, Type = 0xFFFFFFF2)  returns 0x00000006 (0000ms, 0919ms total)
T0940 001:182 JLINK_Go() -- CPU_WriteMem(4 bytes @ 0xE0002008) -- CPU_WriteMem(4 bytes @ 0xE000200C) -- CPU_WriteMem(4 bytes @ 0xE0002010) -- CPU_WriteMem(4 bytes @ 0xE0002014) -- CPU_WriteMem(4 bytes @ 0xE0002018) -- CPU_WriteMem(4 bytes @ 0xE000201C) (0008ms, 0919ms total)
T0940 001:190 JLINK_IsHalted() -- CPU_ReadMem(2 bytes @ 0x20000000)  returns TRUE (0003ms, 0927ms total)
T0940 001:193 JLINK_ReadReg(R15)  returns 0x20000000 (0000ms, 0927ms total)
T0940 001:193 JLINK_ClrBPEx(BPHandle = 0x00000006)  returns 0x00 (0000ms, 0927ms total)
T0940 001:193 JLINK_ReadReg(R0)  returns 0x00000001 (0000ms, 0927ms total)
T0940 001:193 JLINK_WriteReg(R0, 0x08000800)  returns 0x00 (0000ms, 0927ms total)
T0940 001:193 JLINK_WriteReg(R1, 0x00000400)  returns 0x00 (0000ms, 0927ms total)
T0940 001:193 JLINK_WriteReg(R2, 0x000000FF)  returns 0x00 (0000ms, 0927ms total)
T0940 001:193 JLINK_WriteReg(R3, 0x00000000)  returns 0x00 (0000ms, 0927ms total)
T0940 001:193 JLINK_WriteReg(R4, 0x00000000)  returns 0x00 (0000ms, 0927ms total)
T0940 001:193 JLINK_WriteReg(R5, 0x00000000)  returns 0x00 (0000ms, 0927ms total)
T0940 001:193 JLINK_WriteReg(R6, 0x00000000)  returns 0x00 (0000ms, 0927ms total)
T0940 001:193 JLINK_WriteReg(R7, 0x00000000)  returns 0x00 (0000ms, 0927ms total)
T0940 001:193 JLINK_WriteReg(R8, 0x00000000)  returns 0x00 (0000ms, 0927ms total)
T0940 001:193 JLINK_WriteReg(R9, 0x20000160)  returns 0x00 (0000ms, 0927ms total)
T0940 001:193 JLINK_WriteReg(R10, 0x00000000)  returns 0x00 (0000ms, 0927ms total)
T0940 001:193 JLINK_WriteReg(R11, 0x00000000)  returns 0x00 (0000ms, 0927ms total)
T0940 001:193 JLINK_WriteReg(R12, 0x00000000)  returns 0x00 (0000ms, 0927ms total)
T0940 001:193 JLINK_WriteReg(R13, 0x20000800)  returns 0x00 (0000ms, 0927ms total)
T0940 001:193 JLINK_WriteReg(R14, 0x20000001)  returns 0x00 (0000ms, 0927ms total)
T0940 001:193 JLINK_WriteReg(R15, 0x200000B6)  returns 0x00 (0000ms, 0927ms total)
T0940 001:193 JLINK_WriteReg(XPSR, 0x01000000)  returns 0x00 (0000ms, 0927ms total)
T0940 001:193 JLINK_WriteReg(MSP, 0x20000800)  returns 0x00 (0000ms, 0927ms total)
T0940 001:193 JLINK_WriteReg(PSP, 0x20000800)  returns 0x00 (0000ms, 0927ms total)
T0940 001:193 JLINK_WriteReg(CFBP, 0x00000000)  returns 0x00 (0000ms, 0927ms total)
T0940 001:193 JLINK_SetBPEx(Addr = 0x20000000, Type = 0xFFFFFFF2)  returns 0x00000007 (0000ms, 0927ms total)
T0940 001:193 JLINK_Go() -- CPU_WriteMem(4 bytes @ 0xE0002008) -- CPU_WriteMem(4 bytes @ 0xE000200C) -- CPU_WriteMem(4 bytes @ 0xE0002010) -- CPU_WriteMem(4 bytes @ 0xE0002014) -- CPU_WriteMem(4 bytes @ 0xE0002018) -- CPU_WriteMem(4 bytes @ 0xE000201C) (0008ms, 0927ms total)
T0940 001:201 JLINK_IsHalted()  returns FALSE (0001ms, 0935ms total)
T0940 001:253 JLINK_IsHalted() -- CPU_ReadMem(2 bytes @ 0x20000000)  returns TRUE (0005ms, 0935ms total)
T0940 001:258 JLINK_ReadReg(R15)  returns 0x20000000 (0000ms, 0935ms total)
T0940 001:258 JLINK_ClrBPEx(BPHandle = 0x00000007)  returns 0x00 (0000ms, 0935ms total)
T0940 001:258 JLINK_ReadReg(R0)  returns 0x00000000 (0000ms, 0935ms total)
T0940 001:261 JLINK_WriteReg(R0, 0x08000C00)  returns 0x00 (0000ms, 0935ms total)
T0940 001:261 JLINK_WriteReg(R1, 0x00000400)  returns 0x00 (0000ms, 0935ms total)
T0940 001:261 JLINK_WriteReg(R2, 0x000000FF)  returns 0x00 (0000ms, 0935ms total)
T0940 001:261 JLINK_WriteReg(R3, 0x00000000)  returns 0x00 (0000ms, 0935ms total)
T0940 001:261 JLINK_WriteReg(R4, 0x00000000)  returns 0x00 (0000ms, 0935ms total)
T0940 001:261 JLINK_WriteReg(R5, 0x00000000)  returns 0x00 (0000ms, 0935ms total)
T0940 001:261 JLINK_WriteReg(R6, 0x00000000)  returns 0x00 (0000ms, 0935ms total)
T0940 001:261 JLINK_WriteReg(R7, 0x00000000)  returns 0x00 (0000ms, 0935ms total)
T0940 001:261 JLINK_WriteReg(R8, 0x00000000)  returns 0x00 (0000ms, 0935ms total)
T0940 001:261 JLINK_WriteReg(R9, 0x20000160)  returns 0x00 (0000ms, 0935ms total)
T0940 001:261 JLINK_WriteReg(R10, 0x00000000)  returns 0x00 (0000ms, 0935ms total)
T0940 001:261 JLINK_WriteReg(R11, 0x00000000)  returns 0x00 (0000ms, 0935ms total)
T0940 001:261 JLINK_WriteReg(R12, 0x00000000)  returns 0x00 (0000ms, 0935ms total)
T0940 001:261 JLINK_WriteReg(R13, 0x20000800)  returns 0x00 (0000ms, 0935ms total)
T0940 001:261 JLINK_WriteReg(R14, 0x20000001)  returns 0x00 (0000ms, 0935ms total)
T0940 001:261 JLINK_WriteReg(R15, 0x20000020)  returns 0x00 (0000ms, 0935ms total)
T0940 001:261 JLINK_WriteReg(XPSR, 0x01000000)  returns 0x00 (0000ms, 0935ms total)
T0940 001:261 JLINK_WriteReg(MSP, 0x20000800)  returns 0x00 (0000ms, 0935ms total)
T0940 001:261 JLINK_WriteReg(PSP, 0x20000800)  returns 0x00 (0000ms, 0935ms total)
T0940 001:261 JLINK_WriteReg(CFBP, 0x00000000)  returns 0x00 (0000ms, 0935ms total)
T0940 001:261 JLINK_SetBPEx(Addr = 0x20000000, Type = 0xFFFFFFF2)  returns 0x00000008 (0000ms, 0935ms total)
T0940 001:261 JLINK_Go() -- CPU_WriteMem(4 bytes @ 0xE0002008) -- CPU_WriteMem(4 bytes @ 0xE000200C) -- CPU_WriteMem(4 bytes @ 0xE0002010) -- CPU_WriteMem(4 bytes @ 0xE0002014) -- CPU_WriteMem(4 bytes @ 0xE0002018) -- CPU_WriteMem(4 bytes @ 0xE000201C) (0008ms, 0935ms total)
T0940 001:269 JLINK_IsHalted() -- CPU_ReadMem(2 bytes @ 0x20000000)  returns TRUE (0004ms, 0943ms total)
T0940 001:273 JLINK_ReadReg(R15)  returns 0x20000000 (0000ms, 0943ms total)
T0940 001:273 JLINK_ClrBPEx(BPHandle = 0x00000008)  returns 0x00 (0000ms, 0943ms total)
T0940 001:273 JLINK_ReadReg(R0)  returns 0x00000001 (0000ms, 0943ms total)
T0940 001:273 JLINK_WriteReg(R0, 0x08000C00)  returns 0x00 (0000ms, 0943ms total)
T0940 001:273 JLINK_WriteReg(R1, 0x00000400)  returns 0x00 (0000ms, 0943ms total)
T0940 001:273 JLINK_WriteReg(R2, 0x000000FF)  returns 0x00 (0000ms, 0943ms total)
T0940 001:273 JLINK_WriteReg(R3, 0x00000000)  returns 0x00 (0000ms, 0943ms total)
T0940 001:273 JLINK_WriteReg(R4, 0x00000000)  returns 0x00 (0000ms, 0943ms total)
T0940 001:273 JLINK_WriteReg(R5, 0x00000000)  returns 0x00 (0000ms, 0943ms total)
T0940 001:273 JLINK_WriteReg(R6, 0x00000000)  returns 0x00 (0000ms, 0943ms total)
T0940 001:273 JLINK_WriteReg(R7, 0x00000000)  returns 0x00 (0000ms, 0943ms total)
T0940 001:273 JLINK_WriteReg(R8, 0x00000000)  returns 0x00 (0000ms, 0943ms total)
T0940 001:273 JLINK_WriteReg(R9, 0x20000160)  returns 0x00 (0000ms, 0943ms total)
T0940 001:273 JLINK_WriteReg(R10, 0x00000000)  returns 0x00 (0000ms, 0943ms total)
T0940 001:273 JLINK_WriteReg(R11, 0x00000000)  returns 0x00 (0000ms, 0943ms total)
T0940 001:273 JLINK_WriteReg(R12, 0x00000000)  returns 0x00 (0000ms, 0943ms total)
T0940 001:273 JLINK_WriteReg(R13, 0x20000800)  returns 0x00 (0000ms, 0943ms total)
T0940 001:273 JLINK_WriteReg(R14, 0x20000001)  returns 0x00 (0000ms, 0943ms total)
T0940 001:273 JLINK_WriteReg(R15, 0x200000B6)  returns 0x00 (0000ms, 0943ms total)
T0940 001:273 JLINK_WriteReg(XPSR, 0x01000000)  returns 0x00 (0000ms, 0943ms total)
T0940 001:273 JLINK_WriteReg(MSP, 0x20000800)  returns 0x00 (0000ms, 0943ms total)
T0940 001:273 JLINK_WriteReg(PSP, 0x20000800)  returns 0x00 (0000ms, 0943ms total)
T0940 001:273 JLINK_WriteReg(CFBP, 0x00000000)  returns 0x00 (0000ms, 0943ms total)
T0940 001:273 JLINK_SetBPEx(Addr = 0x20000000, Type = 0xFFFFFFF2)  returns 0x00000009 (0000ms, 0943ms total)
T0940 001:273 JLINK_Go() -- CPU_WriteMem(4 bytes @ 0xE0002008) -- CPU_WriteMem(4 bytes @ 0xE000200C) -- CPU_WriteMem(4 bytes @ 0xE0002010) -- CPU_WriteMem(4 bytes @ 0xE0002014) -- CPU_WriteMem(4 bytes @ 0xE0002018) -- CPU_WriteMem(4 bytes @ 0xE000201C) (0007ms, 0943ms total)
T0940 001:280 JLINK_IsHalted()  returns FALSE (0001ms, 0950ms total)
T0940 001:332 JLINK_IsHalted() -- CPU_ReadMem(2 bytes @ 0x20000000)  returns TRUE (0003ms, 0950ms total)
T0940 001:336 JLINK_ReadReg(R15)  returns 0x20000000 (0000ms, 0950ms total)
T0940 001:336 JLINK_ClrBPEx(BPHandle = 0x00000009)  returns 0x00 (0000ms, 0950ms total)
T0940 001:336 JLINK_ReadReg(R0)  returns 0x00000000 (0000ms, 0950ms total)
T0940 001:338 JLINK_WriteReg(R0, 0x08001000)  returns 0x00 (0000ms, 0950ms total)
T0940 001:338 JLINK_WriteReg(R1, 0x00000400)  returns 0x00 (0000ms, 0950ms total)
T0940 001:338 JLINK_WriteReg(R2, 0x000000FF)  returns 0x00 (0000ms, 0950ms total)
T0940 001:338 JLINK_WriteReg(R3, 0x00000000)  returns 0x00 (0000ms, 0950ms total)
T0940 001:338 JLINK_WriteReg(R4, 0x00000000)  returns 0x00 (0000ms, 0950ms total)
T0940 001:338 JLINK_WriteReg(R5, 0x00000000)  returns 0x00 (0001ms, 0950ms total)
T0940 001:339 JLINK_WriteReg(R6, 0x00000000)  returns 0x00 (0000ms, 0951ms total)
T0940 001:339 JLINK_WriteReg(R7, 0x00000000)  returns 0x00 (0000ms, 0951ms total)
T0940 001:339 JLINK_WriteReg(R8, 0x00000000)  returns 0x00 (0000ms, 0951ms total)
T0940 001:339 JLINK_WriteReg(R9, 0x20000160)  returns 0x00 (0000ms, 0951ms total)
T0940 001:339 JLINK_WriteReg(R10, 0x00000000)  returns 0x00 (0000ms, 0951ms total)
T0940 001:339 JLINK_WriteReg(R11, 0x00000000)  returns 0x00 (0000ms, 0951ms total)
T0940 001:339 JLINK_WriteReg(R12, 0x00000000)  returns 0x00 (0000ms, 0951ms total)
T0940 001:339 JLINK_WriteReg(R13, 0x20000800)  returns 0x00 (0000ms, 0951ms total)
T0940 001:339 JLINK_WriteReg(R14, 0x20000001)  returns 0x00 (0000ms, 0951ms total)
T0940 001:339 JLINK_WriteReg(R15, 0x20000020)  returns 0x00 (0000ms, 0951ms total)
T0940 001:339 JLINK_WriteReg(XPSR, 0x01000000)  returns 0x00 (0000ms, 0951ms total)
T0940 001:339 JLINK_WriteReg(MSP, 0x20000800)  returns 0x00 (0000ms, 0951ms total)
T0940 001:339 JLINK_WriteReg(PSP, 0x20000800)  returns 0x00 (0000ms, 0951ms total)
T0940 001:339 JLINK_WriteReg(CFBP, 0x00000000)  returns 0x00 (0000ms, 0951ms total)
T0940 001:339 JLINK_SetBPEx(Addr = 0x20000000, Type = 0xFFFFFFF2)  returns 0x0000000A (0000ms, 0951ms total)
T0940 001:339 JLINK_Go() -- CPU_WriteMem(4 bytes @ 0xE0002008) -- CPU_WriteMem(4 bytes @ 0xE000200C) -- CPU_WriteMem(4 bytes @ 0xE0002010) -- CPU_WriteMem(4 bytes @ 0xE0002014) -- CPU_WriteMem(4 bytes @ 0xE0002018) -- CPU_WriteMem(4 bytes @ 0xE000201C) (0008ms, 0951ms total)
T0940 001:347 JLINK_IsHalted() -- CPU_ReadMem(2 bytes @ 0x20000000)  returns TRUE (0005ms, 0959ms total)
T0940 001:352 JLINK_ReadReg(R15)  returns 0x20000000 (0000ms, 0959ms total)
T0940 001:352 JLINK_ClrBPEx(BPHandle = 0x0000000A)  returns 0x00 (0000ms, 0959ms total)
T0940 001:352 JLINK_ReadReg(R0)  returns 0x00000001 (0000ms, 0959ms total)
T0940 001:352 JLINK_WriteReg(R0, 0x08001000)  returns 0x00 (0000ms, 0959ms total)
T0940 001:352 JLINK_WriteReg(R1, 0x00000400)  returns 0x00 (0000ms, 0959ms total)
T0940 001:352 JLINK_WriteReg(R2, 0x000000FF)  returns 0x00 (0000ms, 0959ms total)
T0940 001:352 JLINK_WriteReg(R3, 0x00000000)  returns 0x00 (0000ms, 0959ms total)
T0940 001:352 JLINK_WriteReg(R4, 0x00000000)  returns 0x00 (0000ms, 0959ms total)
T0940 001:352 JLINK_WriteReg(R5, 0x00000000)  returns 0x00 (0000ms, 0959ms total)
T0940 001:352 JLINK_WriteReg(R6, 0x00000000)  returns 0x00 (0000ms, 0959ms total)
T0940 001:352 JLINK_WriteReg(R7, 0x00000000)  returns 0x00 (0000ms, 0959ms total)
T0940 001:352 JLINK_WriteReg(R8, 0x00000000)  returns 0x00 (0000ms, 0959ms total)
T0940 001:352 JLINK_WriteReg(R9, 0x20000160)  returns 0x00 (0000ms, 0959ms total)
T0940 001:352 JLINK_WriteReg(R10, 0x00000000)  returns 0x00 (0000ms, 0959ms total)
T0940 001:352 JLINK_WriteReg(R11, 0x00000000)  returns 0x00 (0000ms, 0959ms total)
T0940 001:352 JLINK_WriteReg(R12, 0x00000000)  returns 0x00 (0000ms, 0959ms total)
T0940 001:352 JLINK_WriteReg(R13, 0x20000800)  returns 0x00 (0000ms, 0959ms total)
T0940 001:352 JLINK_WriteReg(R14, 0x20000001)  returns 0x00 (0000ms, 0959ms total)
T0940 001:352 JLINK_WriteReg(R15, 0x200000B6)  returns 0x00 (0000ms, 0959ms total)
T0940 001:352 JLINK_WriteReg(XPSR, 0x01000000)  returns 0x00 (0000ms, 0959ms total)
T0940 001:352 JLINK_WriteReg(MSP, 0x20000800)  returns 0x00 (0000ms, 0959ms total)
T0940 001:352 JLINK_WriteReg(PSP, 0x20000800)  returns 0x00 (0000ms, 0959ms total)
T0940 001:352 JLINK_WriteReg(CFBP, 0x00000000)  returns 0x00 (0000ms, 0959ms total)
T0940 001:352 JLINK_SetBPEx(Addr = 0x20000000, Type = 0xFFFFFFF2)  returns 0x0000000B (0000ms, 0959ms total)
T0940 001:352 JLINK_Go() -- CPU_WriteMem(4 bytes @ 0xE0002008) -- CPU_WriteMem(4 bytes @ 0xE000200C) -- CPU_WriteMem(4 bytes @ 0xE0002010) -- CPU_WriteMem(4 bytes @ 0xE0002014) -- CPU_WriteMem(4 bytes @ 0xE0002018) -- CPU_WriteMem(4 bytes @ 0xE000201C) (0008ms, 0959ms total)
T0940 001:360 JLINK_IsHalted()  returns FALSE (0000ms, 0967ms total)
T0940 001:411 JLINK_IsHalted() -- CPU_ReadMem(2 bytes @ 0x20000000)  returns TRUE (0004ms, 0967ms total)
T0940 001:415 JLINK_ReadReg(R15)  returns 0x20000000 (0000ms, 0967ms total)
T0940 001:415 JLINK_ClrBPEx(BPHandle = 0x0000000B)  returns 0x00 (0000ms, 0967ms total)
T0940 001:415 JLINK_ReadReg(R0)  returns 0x00000000 (0000ms, 0967ms total)
T0940 001:416 JLINK_WriteReg(R0, 0x08001400)  returns 0x00 (0000ms, 0967ms total)
T0940 001:416 JLINK_WriteReg(R1, 0x00000400)  returns 0x00 (0000ms, 0967ms total)
T0940 001:416 JLINK_WriteReg(R2, 0x000000FF)  returns 0x00 (0000ms, 0967ms total)
T0940 001:417 JLINK_WriteReg(R3, 0x00000000)  returns 0x00 (0000ms, 0967ms total)
T0940 001:417 JLINK_WriteReg(R4, 0x00000000)  returns 0x00 (0000ms, 0967ms total)
T0940 001:417 JLINK_WriteReg(R5, 0x00000000)  returns 0x00 (0000ms, 0967ms total)
T0940 001:417 JLINK_WriteReg(R6, 0x00000000)  returns 0x00 (0000ms, 0967ms total)
T0940 001:417 JLINK_WriteReg(R7, 0x00000000)  returns 0x00 (0000ms, 0967ms total)
T0940 001:417 JLINK_WriteReg(R8, 0x00000000)  returns 0x00 (0000ms, 0967ms total)
T0940 001:417 JLINK_WriteReg(R9, 0x20000160)  returns 0x00 (0000ms, 0967ms total)
T0940 001:417 JLINK_WriteReg(R10, 0x00000000)  returns 0x00 (0000ms, 0967ms total)
T0940 001:417 JLINK_WriteReg(R11, 0x00000000)  returns 0x00 (0000ms, 0967ms total)
T0940 001:417 JLINK_WriteReg(R12, 0x00000000)  returns 0x00 (0000ms, 0967ms total)
T0940 001:417 JLINK_WriteReg(R13, 0x20000800)  returns 0x00 (0000ms, 0967ms total)
T0940 001:417 JLINK_WriteReg(R14, 0x20000001)  returns 0x00 (0000ms, 0967ms total)
T0940 001:417 JLINK_WriteReg(R15, 0x20000020)  returns 0x00 (0000ms, 0967ms total)
T0940 001:417 JLINK_WriteReg(XPSR, 0x01000000)  returns 0x00 (0000ms, 0967ms total)
T0940 001:417 JLINK_WriteReg(MSP, 0x20000800)  returns 0x00 (0000ms, 0967ms total)
T0940 001:417 JLINK_WriteReg(PSP, 0x20000800)  returns 0x00 (0000ms, 0967ms total)
T0940 001:417 JLINK_WriteReg(CFBP, 0x00000000)  returns 0x00 (0000ms, 0967ms total)
T0940 001:417 JLINK_SetBPEx(Addr = 0x20000000, Type = 0xFFFFFFF2)  returns 0x0000000C (0000ms, 0967ms total)
T0940 001:417 JLINK_Go() -- CPU_WriteMem(4 bytes @ 0xE0002008) -- CPU_WriteMem(4 bytes @ 0xE000200C) -- CPU_WriteMem(4 bytes @ 0xE0002010) -- CPU_WriteMem(4 bytes @ 0xE0002014) -- CPU_WriteMem(4 bytes @ 0xE0002018) -- CPU_WriteMem(4 bytes @ 0xE000201C) (0008ms, 0967ms total)
T0940 001:425 JLINK_IsHalted() -- CPU_ReadMem(2 bytes @ 0x20000000)  returns TRUE (0004ms, 0975ms total)
T0940 001:429 JLINK_ReadReg(R15)  returns 0x20000000 (0000ms, 0975ms total)
T0940 001:429 JLINK_ClrBPEx(BPHandle = 0x0000000C)  returns 0x00 (0000ms, 0975ms total)
T0940 001:429 JLINK_ReadReg(R0)  returns 0x00000001 (0000ms, 0975ms total)
T0940 001:429 JLINK_WriteReg(R0, 0x08001400)  returns 0x00 (0000ms, 0975ms total)
T0940 001:429 JLINK_WriteReg(R1, 0x00000400)  returns 0x00 (0000ms, 0975ms total)
T0940 001:429 JLINK_WriteReg(R2, 0x000000FF)  returns 0x00 (0000ms, 0975ms total)
T0940 001:429 JLINK_WriteReg(R3, 0x00000000)  returns 0x00 (0000ms, 0975ms total)
T0940 001:429 JLINK_WriteReg(R4, 0x00000000)  returns 0x00 (0000ms, 0975ms total)
T0940 001:429 JLINK_WriteReg(R5, 0x00000000)  returns 0x00 (0000ms, 0975ms total)
T0940 001:429 JLINK_WriteReg(R6, 0x00000000)  returns 0x00 (0000ms, 0975ms total)
T0940 001:429 JLINK_WriteReg(R7, 0x00000000)  returns 0x00 (0000ms, 0975ms total)
T0940 001:429 JLINK_WriteReg(R8, 0x00000000)  returns 0x00 (0000ms, 0975ms total)
T0940 001:429 JLINK_WriteReg(R9, 0x20000160)  returns 0x00 (0000ms, 0975ms total)
T0940 001:429 JLINK_WriteReg(R10, 0x00000000)  returns 0x00 (0000ms, 0975ms total)
T0940 001:429 JLINK_WriteReg(R11, 0x00000000)  returns 0x00 (0000ms, 0975ms total)
T0940 001:429 JLINK_WriteReg(R12, 0x00000000)  returns 0x00 (0000ms, 0975ms total)
T0940 001:429 JLINK_WriteReg(R13, 0x20000800)  returns 0x00 (0000ms, 0975ms total)
T0940 001:429 JLINK_WriteReg(R14, 0x20000001)  returns 0x00 (0000ms, 0975ms total)
T0940 001:429 JLINK_WriteReg(R15, 0x200000B6)  returns 0x00 (0000ms, 0975ms total)
T0940 001:429 JLINK_WriteReg(XPSR, 0x01000000)  returns 0x00 (0000ms, 0975ms total)
T0940 001:429 JLINK_WriteReg(MSP, 0x20000800)  returns 0x00 (0000ms, 0975ms total)
T0940 001:429 JLINK_WriteReg(PSP, 0x20000800)  returns 0x00 (0000ms, 0975ms total)
T0940 001:429 JLINK_WriteReg(CFBP, 0x00000000)  returns 0x00 (0000ms, 0975ms total)
T0940 001:429 JLINK_SetBPEx(Addr = 0x20000000, Type = 0xFFFFFFF2)  returns 0x0000000D (0000ms, 0975ms total)
T0940 001:429 JLINK_Go() -- CPU_WriteMem(4 bytes @ 0xE0002008) -- CPU_WriteMem(4 bytes @ 0xE000200C) -- CPU_WriteMem(4 bytes @ 0xE0002010) -- CPU_WriteMem(4 bytes @ 0xE0002014) -- CPU_WriteMem(4 bytes @ 0xE0002018) -- CPU_WriteMem(4 bytes @ 0xE000201C) (0008ms, 0975ms total)
T0940 001:437 JLINK_IsHalted()  returns FALSE (0001ms, 0983ms total)
T0940 001:488 JLINK_IsHalted() -- CPU_ReadMem(2 bytes @ 0x20000000)  returns TRUE (0003ms, 0983ms total)
T0940 001:491 JLINK_ReadReg(R15)  returns 0x20000000 (0000ms, 0983ms total)
T0940 001:491 JLINK_ClrBPEx(BPHandle = 0x0000000D)  returns 0x00 (0000ms, 0983ms total)
T0940 001:491 JLINK_ReadReg(R0)  returns 0x00000000 (0000ms, 0983ms total)
T0940 001:496 JLINK_WriteReg(R0, 0x08001800)  returns 0x00 (0000ms, 0983ms total)
T0940 001:496 JLINK_WriteReg(R1, 0x00000400)  returns 0x00 (0000ms, 0983ms total)
T0940 001:496 JLINK_WriteReg(R2, 0x000000FF)  returns 0x00 (0000ms, 0983ms total)
T0940 001:496 JLINK_WriteReg(R3, 0x00000000)  returns 0x00 (0000ms, 0983ms total)
T0940 001:496 JLINK_WriteReg(R4, 0x00000000)  returns 0x00 (0000ms, 0983ms total)
T0940 001:496 JLINK_WriteReg(R5, 0x00000000)  returns 0x00 (0000ms, 0983ms total)
T0940 001:496 JLINK_WriteReg(R6, 0x00000000)  returns 0x00 (0000ms, 0983ms total)
T0940 001:496 JLINK_WriteReg(R7, 0x00000000)  returns 0x00 (0000ms, 0983ms total)
T0940 001:496 JLINK_WriteReg(R8, 0x00000000)  returns 0x00 (0000ms, 0983ms total)
T0940 001:496 JLINK_WriteReg(R9, 0x20000160)  returns 0x00 (0000ms, 0983ms total)
T0940 001:496 JLINK_WriteReg(R10, 0x00000000)  returns 0x00 (0000ms, 0983ms total)
T0940 001:496 JLINK_WriteReg(R11, 0x00000000)  returns 0x00 (0000ms, 0983ms total)
T0940 001:496 JLINK_WriteReg(R12, 0x00000000)  returns 0x00 (0000ms, 0983ms total)
T0940 001:496 JLINK_WriteReg(R13, 0x20000800)  returns 0x00 (0000ms, 0983ms total)
T0940 001:496 JLINK_WriteReg(R14, 0x20000001)  returns 0x00 (0000ms, 0983ms total)
T0940 001:496 JLINK_WriteReg(R15, 0x20000020)  returns 0x00 (0000ms, 0983ms total)
T0940 001:496 JLINK_WriteReg(XPSR, 0x01000000)  returns 0x00 (0000ms, 0983ms total)
T0940 001:496 JLINK_WriteReg(MSP, 0x20000800)  returns 0x00 (0000ms, 0983ms total)
T0940 001:496 JLINK_WriteReg(PSP, 0x20000800)  returns 0x00 (0000ms, 0983ms total)
T0940 001:496 JLINK_WriteReg(CFBP, 0x00000000)  returns 0x00 (0000ms, 0983ms total)
T0940 001:496 JLINK_SetBPEx(Addr = 0x20000000, Type = 0xFFFFFFF2)  returns 0x0000000E (0000ms, 0983ms total)
T0940 001:496 JLINK_Go() -- CPU_WriteMem(4 bytes @ 0xE0002008) -- CPU_WriteMem(4 bytes @ 0xE000200C) -- CPU_WriteMem(4 bytes @ 0xE0002010) -- CPU_WriteMem(4 bytes @ 0xE0002014) -- CPU_WriteMem(4 bytes @ 0xE0002018) -- CPU_WriteMem(4 bytes @ 0xE000201C) (0009ms, 0983ms total)
T0940 001:505 JLINK_IsHalted() -- CPU_ReadMem(2 bytes @ 0x20000000)  returns TRUE (0004ms, 0992ms total)
T0940 001:509 JLINK_ReadReg(R15)  returns 0x20000000 (0000ms, 0992ms total)
T0940 001:509 JLINK_ClrBPEx(BPHandle = 0x0000000E)  returns 0x00 (0000ms, 0992ms total)
T0940 001:509 JLINK_ReadReg(R0)  returns 0x00000001 (0000ms, 0992ms total)
T0940 001:509 JLINK_WriteReg(R0, 0x08001800)  returns 0x00 (0000ms, 0992ms total)
T0940 001:509 JLINK_WriteReg(R1, 0x00000400)  returns 0x00 (0000ms, 0992ms total)
T0940 001:509 JLINK_WriteReg(R2, 0x000000FF)  returns 0x00 (0000ms, 0992ms total)
T0940 001:509 JLINK_WriteReg(R3, 0x00000000)  returns 0x00 (0000ms, 0992ms total)
T0940 001:509 JLINK_WriteReg(R4, 0x00000000)  returns 0x00 (0000ms, 0992ms total)
T0940 001:509 JLINK_WriteReg(R5, 0x00000000)  returns 0x00 (0000ms, 0992ms total)
T0940 001:509 JLINK_WriteReg(R6, 0x00000000)  returns 0x00 (0000ms, 0992ms total)
T0940 001:509 JLINK_WriteReg(R7, 0x00000000)  returns 0x00 (0000ms, 0992ms total)
T0940 001:509 JLINK_WriteReg(R8, 0x00000000)  returns 0x00 (0000ms, 0992ms total)
T0940 001:509 JLINK_WriteReg(R9, 0x20000160)  returns 0x00 (0000ms, 0992ms total)
T0940 001:509 JLINK_WriteReg(R10, 0x00000000)  returns 0x00 (0000ms, 0992ms total)
T0940 001:509 JLINK_WriteReg(R11, 0x00000000)  returns 0x00 (0000ms, 0992ms total)
T0940 001:509 JLINK_WriteReg(R12, 0x00000000)  returns 0x00 (0000ms, 0992ms total)
T0940 001:509 JLINK_WriteReg(R13, 0x20000800)  returns 0x00 (0000ms, 0992ms total)
T0940 001:509 JLINK_WriteReg(R14, 0x20000001)  returns 0x00 (0000ms, 0992ms total)
T0940 001:509 JLINK_WriteReg(R15, 0x200000B6)  returns 0x00 (0000ms, 0992ms total)
T0940 001:509 JLINK_WriteReg(XPSR, 0x01000000)  returns 0x00 (0000ms, 0992ms total)
T0940 001:509 JLINK_WriteReg(MSP, 0x20000800)  returns 0x00 (0000ms, 0992ms total)
T0940 001:509 JLINK_WriteReg(PSP, 0x20000800)  returns 0x00 (0000ms, 0992ms total)
T0940 001:509 JLINK_WriteReg(CFBP, 0x00000000)  returns 0x00 (0000ms, 0992ms total)
T0940 001:509 JLINK_SetBPEx(Addr = 0x20000000, Type = 0xFFFFFFF2)  returns 0x0000000F (0000ms, 0992ms total)
T0940 001:509 JLINK_Go() -- CPU_WriteMem(4 bytes @ 0xE0002008) -- CPU_WriteMem(4 bytes @ 0xE000200C) -- CPU_WriteMem(4 bytes @ 0xE0002010) -- CPU_WriteMem(4 bytes @ 0xE0002014) -- CPU_WriteMem(4 bytes @ 0xE0002018) -- CPU_WriteMem(4 bytes @ 0xE000201C) (0008ms, 0992ms total)
T0940 001:517 JLINK_IsHalted()  returns FALSE (0001ms, 1000ms total)
T0940 001:568 JLINK_IsHalted() -- CPU_ReadMem(2 bytes @ 0x20000000)  returns TRUE (0004ms, 1000ms total)
T0940 001:572 JLINK_ReadReg(R15)  returns 0x20000000 (0000ms, 1000ms total)
T0940 001:572 JLINK_ClrBPEx(BPHandle = 0x0000000F)  returns 0x00 (0000ms, 1000ms total)
T0940 001:572 JLINK_ReadReg(R0)  returns 0x00000000 (0000ms, 1000ms total)
T0940 001:573 JLINK_WriteReg(R0, 0x08001C00)  returns 0x00 (0000ms, 1000ms total)
T0940 001:573 JLINK_WriteReg(R1, 0x00000400)  returns 0x00 (0000ms, 1000ms total)
T0940 001:573 JLINK_WriteReg(R2, 0x000000FF)  returns 0x00 (0000ms, 1000ms total)
T0940 001:573 JLINK_WriteReg(R3, 0x00000000)  returns 0x00 (0000ms, 1000ms total)
T0940 001:573 JLINK_WriteReg(R4, 0x00000000)  returns 0x00 (0000ms, 1000ms total)
T0940 001:573 JLINK_WriteReg(R5, 0x00000000)  returns 0x00 (0000ms, 1000ms total)
T0940 001:573 JLINK_WriteReg(R6, 0x00000000)  returns 0x00 (0000ms, 1000ms total)
T0940 001:573 JLINK_WriteReg(R7, 0x00000000)  returns 0x00 (0000ms, 1000ms total)
T0940 001:573 JLINK_WriteReg(R8, 0x00000000)  returns 0x00 (0000ms, 1000ms total)
T0940 001:573 JLINK_WriteReg(R9, 0x20000160)  returns 0x00 (0000ms, 1000ms total)
T0940 001:573 JLINK_WriteReg(R10, 0x00000000)  returns 0x00 (0000ms, 1000ms total)
T0940 001:573 JLINK_WriteReg(R11, 0x00000000)  returns 0x00 (0000ms, 1000ms total)
T0940 001:573 JLINK_WriteReg(R12, 0x00000000)  returns 0x00 (0000ms, 1000ms total)
T0940 001:573 JLINK_WriteReg(R13, 0x20000800)  returns 0x00 (0000ms, 1000ms total)
T0940 001:573 JLINK_WriteReg(R14, 0x20000001)  returns 0x00 (0000ms, 1000ms total)
T0940 001:573 JLINK_WriteReg(R15, 0x20000020)  returns 0x00 (0000ms, 1000ms total)
T0940 001:573 JLINK_WriteReg(XPSR, 0x01000000)  returns 0x00 (0000ms, 1000ms total)
T0940 001:573 JLINK_WriteReg(MSP, 0x20000800)  returns 0x00 (0000ms, 1000ms total)
T0940 001:573 JLINK_WriteReg(PSP, 0x20000800)  returns 0x00 (0000ms, 1000ms total)
T0940 001:573 JLINK_WriteReg(CFBP, 0x00000000)  returns 0x00 (0000ms, 1000ms total)
T0940 001:573 JLINK_SetBPEx(Addr = 0x20000000, Type = 0xFFFFFFF2)  returns 0x00000010 (0000ms, 1000ms total)
T0940 001:573 JLINK_Go() -- CPU_WriteMem(4 bytes @ 0xE0002008) -- CPU_WriteMem(4 bytes @ 0xE000200C) -- CPU_WriteMem(4 bytes @ 0xE0002010) -- CPU_WriteMem(4 bytes @ 0xE0002014) -- CPU_WriteMem(4 bytes @ 0xE0002018) -- CPU_WriteMem(4 bytes @ 0xE000201C) (0008ms, 1000ms total)
T0940 001:581 JLINK_IsHalted() -- CPU_ReadMem(2 bytes @ 0x20000000)  returns TRUE (0004ms, 1008ms total)
T0940 001:585 JLINK_ReadReg(R15)  returns 0x20000000 (0000ms, 1008ms total)
T0940 001:585 JLINK_ClrBPEx(BPHandle = 0x00000010)  returns 0x00 (0001ms, 1008ms total)
T0940 001:586 JLINK_ReadReg(R0)  returns 0x00000001 (0000ms, 1009ms total)
T0940 001:586 JLINK_WriteReg(R0, 0x08001C00)  returns 0x00 (0000ms, 1009ms total)
T0940 001:586 JLINK_WriteReg(R1, 0x00000400)  returns 0x00 (0000ms, 1009ms total)
T0940 001:586 JLINK_WriteReg(R2, 0x000000FF)  returns 0x00 (0000ms, 1009ms total)
T0940 001:586 JLINK_WriteReg(R3, 0x00000000)  returns 0x00 (0000ms, 1009ms total)
T0940 001:586 JLINK_WriteReg(R4, 0x00000000)  returns 0x00 (0000ms, 1009ms total)
T0940 001:586 JLINK_WriteReg(R5, 0x00000000)  returns 0x00 (0000ms, 1009ms total)
T0940 001:586 JLINK_WriteReg(R6, 0x00000000)  returns 0x00 (0000ms, 1009ms total)
T0940 001:586 JLINK_WriteReg(R7, 0x00000000)  returns 0x00 (0000ms, 1009ms total)
T0940 001:586 JLINK_WriteReg(R8, 0x00000000)  returns 0x00 (0000ms, 1009ms total)
T0940 001:586 JLINK_WriteReg(R9, 0x20000160)  returns 0x00 (0000ms, 1009ms total)
T0940 001:586 JLINK_WriteReg(R10, 0x00000000)  returns 0x00 (0000ms, 1009ms total)
T0940 001:586 JLINK_WriteReg(R11, 0x00000000)  returns 0x00 (0000ms, 1009ms total)
T0940 001:586 JLINK_WriteReg(R12, 0x00000000)  returns 0x00 (0000ms, 1009ms total)
T0940 001:586 JLINK_WriteReg(R13, 0x20000800)  returns 0x00 (0000ms, 1009ms total)
T0940 001:586 JLINK_WriteReg(R14, 0x20000001)  returns 0x00 (0000ms, 1009ms total)
T0940 001:586 JLINK_WriteReg(R15, 0x200000B6)  returns 0x00 (0000ms, 1009ms total)
T0940 001:586 JLINK_WriteReg(XPSR, 0x01000000)  returns 0x00 (0000ms, 1009ms total)
T0940 001:586 JLINK_WriteReg(MSP, 0x20000800)  returns 0x00 (0000ms, 1009ms total)
T0940 001:586 JLINK_WriteReg(PSP, 0x20000800)  returns 0x00 (0000ms, 1009ms total)
T0940 001:586 JLINK_WriteReg(CFBP, 0x00000000)  returns 0x00 (0000ms, 1009ms total)
T0940 001:586 JLINK_SetBPEx(Addr = 0x20000000, Type = 0xFFFFFFF2)  returns 0x00000011 (0000ms, 1009ms total)
T0940 001:586 JLINK_Go() -- CPU_WriteMem(4 bytes @ 0xE0002008) -- CPU_WriteMem(4 bytes @ 0xE000200C) -- CPU_WriteMem(4 bytes @ 0xE0002010) -- CPU_WriteMem(4 bytes @ 0xE0002014) -- CPU_WriteMem(4 bytes @ 0xE0002018) -- CPU_WriteMem(4 bytes @ 0xE000201C) (0008ms, 1009ms total)
T0940 001:594 JLINK_IsHalted()  returns FALSE (0001ms, 1017ms total)
T0940 001:646 JLINK_IsHalted() -- CPU_ReadMem(2 bytes @ 0x20000000)  returns TRUE (0004ms, 1017ms total)
T0940 001:650 JLINK_ReadReg(R15)  returns 0x20000000 (0000ms, 1017ms total)
T0940 001:650 JLINK_ClrBPEx(BPHandle = 0x00000011)  returns 0x00 (0000ms, 1017ms total)
T0940 001:650 JLINK_ReadReg(R0)  returns 0x00000000 (0000ms, 1017ms total)
T0940 001:651 JLINK_WriteReg(R0, 0x08002000)  returns 0x00 (0000ms, 1017ms total)
T0940 001:651 JLINK_WriteReg(R1, 0x00000400)  returns 0x00 (0000ms, 1017ms total)
T0940 001:651 JLINK_WriteReg(R2, 0x000000FF)  returns 0x00 (0000ms, 1017ms total)
T0940 001:651 JLINK_WriteReg(R3, 0x00000000)  returns 0x00 (0000ms, 1017ms total)
T0940 001:651 JLINK_WriteReg(R4, 0x00000000)  returns 0x00 (0000ms, 1017ms total)
T0940 001:651 JLINK_WriteReg(R5, 0x00000000)  returns 0x00 (0000ms, 1017ms total)
T0940 001:651 JLINK_WriteReg(R6, 0x00000000)  returns 0x00 (0000ms, 1017ms total)
T0940 001:651 JLINK_WriteReg(R7, 0x00000000)  returns 0x00 (0000ms, 1017ms total)
T0940 001:651 JLINK_WriteReg(R8, 0x00000000)  returns 0x00 (0000ms, 1017ms total)
T0940 001:651 JLINK_WriteReg(R9, 0x20000160)  returns 0x00 (0000ms, 1017ms total)
T0940 001:651 JLINK_WriteReg(R10, 0x00000000)  returns 0x00 (0000ms, 1017ms total)
T0940 001:651 JLINK_WriteReg(R11, 0x00000000)  returns 0x00 (0000ms, 1017ms total)
T0940 001:651 JLINK_WriteReg(R12, 0x00000000)  returns 0x00 (0000ms, 1017ms total)
T0940 001:651 JLINK_WriteReg(R13, 0x20000800)  returns 0x00 (0000ms, 1017ms total)
T0940 001:651 JLINK_WriteReg(R14, 0x20000001)  returns 0x00 (0000ms, 1017ms total)
T0940 001:651 JLINK_WriteReg(R15, 0x20000020)  returns 0x00 (0000ms, 1017ms total)
T0940 001:651 JLINK_WriteReg(XPSR, 0x01000000)  returns 0x00 (0000ms, 1017ms total)
T0940 001:651 JLINK_WriteReg(MSP, 0x20000800)  returns 0x00 (0000ms, 1017ms total)
T0940 001:651 JLINK_WriteReg(PSP, 0x20000800)  returns 0x00 (0000ms, 1017ms total)
T0940 001:651 JLINK_WriteReg(CFBP, 0x00000000)  returns 0x00 (0000ms, 1017ms total)
T0940 001:651 JLINK_SetBPEx(Addr = 0x20000000, Type = 0xFFFFFFF2)  returns 0x00000012 (0000ms, 1017ms total)
T0940 001:651 JLINK_Go() -- CPU_WriteMem(4 bytes @ 0xE0002008) -- CPU_WriteMem(4 bytes @ 0xE000200C) -- CPU_WriteMem(4 bytes @ 0xE0002010) -- CPU_WriteMem(4 bytes @ 0xE0002014) -- CPU_WriteMem(4 bytes @ 0xE0002018) -- CPU_WriteMem(4 bytes @ 0xE000201C) (0007ms, 1017ms total)
T0940 001:658 JLINK_IsHalted() -- CPU_ReadMem(2 bytes @ 0x20000000)  returns TRUE (0004ms, 1024ms total)
